<Qucs Dataset 25.2.0>
<indep frequency 200>
1.000000000000e+00
1.014974874372e+02
2.019949748744e+02
3.024924623116e+02
4.029899497487e+02
5.034874371859e+02
6.039849246231e+02
7.044824120603e+02
8.049798994975e+02
9.054773869347e+02
1.005974874372e+03
1.106472361809e+03
1.206969849246e+03
1.307467336683e+03
1.407964824121e+03
1.508462311558e+03
1.608959798995e+03
1.709457286432e+03
1.809954773869e+03
1.910452261307e+03
2.010949748744e+03
2.111447236181e+03
2.211944723618e+03
2.312442211055e+03
2.412939698492e+03
2.513437185930e+03
2.613934673367e+03
2.714432160804e+03
2.814929648241e+03
2.915427135678e+03
3.015924623116e+03
3.116422110553e+03
3.216919597990e+03
3.317417085427e+03
3.417914572864e+03
3.518412060302e+03
3.618909547739e+03
3.719407035176e+03
3.819904522613e+03
3.920402010050e+03
4.020899497487e+03
4.121396984925e+03
4.221894472362e+03
4.322391959799e+03
4.422889447236e+03
4.523386934673e+03
4.623884422111e+03
4.724381909548e+03
4.824879396985e+03
4.925376884422e+03
5.025874371859e+03
5.126371859296e+03
5.226869346734e+03
5.327366834171e+03
5.427864321608e+03
5.528361809045e+03
5.628859296482e+03
5.729356783920e+03
5.829854271357e+03
5.930351758794e+03
6.030849246231e+03
6.131346733668e+03
6.231844221106e+03
6.332341708543e+03
6.432839195980e+03
6.533336683417e+03
6.633834170854e+03
6.734331658291e+03
6.834829145729e+03
6.935326633166e+03
7.035824120603e+03
7.136321608040e+03
7.236819095477e+03
7.337316582915e+03
7.437814070352e+03
7.538311557789e+03
7.638809045226e+03
7.739306532663e+03
7.839804020100e+03
7.940301507538e+03
8.040798994975e+03
8.141296482412e+03
8.241793969849e+03
8.342291457286e+03
8.442788944724e+03
8.543286432161e+03
8.643783919598e+03
8.744281407035e+03
8.844778894472e+03
8.945276381910e+03
9.045773869347e+03
9.146271356784e+03
9.246768844221e+03
9.347266331658e+03
9.447763819095e+03
9.548261306533e+03
9.648758793970e+03
9.749256281407e+03
9.849753768844e+03
9.950251256281e+03
1.005074874372e+04
1.015124623116e+04
1.025174371859e+04
1.035224120603e+04
1.045273869347e+04
1.055323618090e+04
1.065373366834e+04
1.075423115578e+04
1.085472864322e+04
1.095522613065e+04
1.105572361809e+04
1.115622110553e+04
1.125671859296e+04
1.135721608040e+04
1.145771356784e+04
1.155821105528e+04
1.165870854271e+04
1.175920603015e+04
1.185970351759e+04
1.196020100503e+04
1.206069849246e+04
1.216119597990e+04
1.226169346734e+04
1.236219095477e+04
1.246268844221e+04
1.256318592965e+04
1.266368341709e+04
1.276418090452e+04
1.286467839196e+04
1.296517587940e+04
1.306567336683e+04
1.316617085427e+04
1.326666834171e+04
1.336716582915e+04
1.346766331658e+04
1.356816080402e+04
1.366865829146e+04
1.376915577889e+04
1.386965326633e+04
1.397015075377e+04
1.407064824121e+04
1.417114572864e+04
1.427164321608e+04
1.437214070352e+04
1.447263819095e+04
1.457313567839e+04
1.467363316583e+04
1.477413065327e+04
1.487462814070e+04
1.497512562814e+04
1.507562311558e+04
1.517612060302e+04
1.527661809045e+04
1.537711557789e+04
1.547761306533e+04
1.557811055276e+04
1.567860804020e+04
1.577910552764e+04
1.587960301508e+04
1.598010050251e+04
1.608059798995e+04
1.618109547739e+04
1.628159296482e+04
1.638209045226e+04
1.648258793970e+04
1.658308542714e+04
1.668358291457e+04
1.678408040201e+04
1.688457788945e+04
1.698507537688e+04
1.708557286432e+04
1.718607035176e+04
1.728656783920e+04
1.738706532663e+04
1.748756281407e+04
1.758806030151e+04
1.768855778894e+04
1.778905527638e+04
1.788955276382e+04
1.799005025126e+04
1.809054773869e+04
1.819104522613e+04
1.829154271357e+04
1.839204020101e+04
1.849253768844e+04
1.859303517588e+04
1.869353266332e+04
1.879403015075e+04
1.889452763819e+04
1.899502512563e+04
1.909552261307e+04
1.919602010050e+04
1.929651758794e+04
1.939701507538e+04
1.949751256281e+04
1.959801005025e+04
1.969850753769e+04
1.979900502513e+04
1.989950251256e+04
2.000000000000e+04
</indep>
<dep ac.v(vinput) frequency>
1.000000000000e+00+j0.000000000000e+00
1.000000000000e+00+j0.000000000000e+00
1.000000000000e+00+j0.000000000000e+00
1.000000000000e+00+j0.000000000000e+00
1.000000000000e+00+j0.000000000000e+00
1.000000000000e+00+j0.000000000000e+00
1.000000000000e+00+j0.000000000000e+00
1.000000000000e+00+j0.000000000000e+00
1.000000000000e+00+j0.000000000000e+00
1.000000000000e+00+j0.000000000000e+00
1.000000000000e+00+j0.000000000000e+00
1.000000000000e+00+j0.000000000000e+00
1.000000000000e+00+j0.000000000000e+00
1.000000000000e+00+j0.000000000000e+00
1.000000000000e+00+j0.000000000000e+00
1.000000000000e+00+j0.000000000000e+00
1.000000000000e+00+j0.000000000000e+00
1.000000000000e+00+j0.000000000000e+00
1.000000000000e+00+j0.000000000000e+00
1.000000000000e+00+j0.000000000000e+00
1.000000000000e+00+j0.000000000000e+00
1.000000000000e+00+j0.000000000000e+00
1.000000000000e+00+j0.000000000000e+00
1.000000000000e+00+j0.000000000000e+00
1.000000000000e+00+j0.000000000000e+00
1.000000000000e+00+j0.000000000000e+00
1.000000000000e+00+j0.000000000000e+00
1.000000000000e+00+j0.000000000000e+00
1.000000000000e+00+j0.000000000000e+00
1.000000000000e+00+j0.000000000000e+00
1.000000000000e+00+j0.000000000000e+00
1.000000000000e+00+j0.000000000000e+00
1.000000000000e+00+j0.000000000000e+00
1.000000000000e+00+j0.000000000000e+00
1.000000000000e+00+j0.000000000000e+00
1.000000000000e+00+j0.000000000000e+00
1.000000000000e+00+j0.000000000000e+00
1.000000000000e+00+j0.000000000000e+00
1.000000000000e+00+j0.000000000000e+00
1.000000000000e+00+j0.000000000000e+00
1.000000000000e+00+j0.000000000000e+00
1.000000000000e+00+j0.000000000000e+00
1.000000000000e+00+j0.000000000000e+00
1.000000000000e+00+j0.000000000000e+00
1.000000000000e+00+j0.000000000000e+00
1.000000000000e+00+j0.000000000000e+00
1.000000000000e+00+j0.000000000000e+00
1.000000000000e+00+j0.000000000000e+00
1.000000000000e+00+j0.000000000000e+00
1.000000000000e+00+j0.000000000000e+00
1.000000000000e+00+j0.000000000000e+00
1.000000000000e+00+j0.000000000000e+00
1.000000000000e+00+j0.000000000000e+00
1.000000000000e+00+j0.000000000000e+00
1.000000000000e+00+j0.000000000000e+00
1.000000000000e+00+j0.000000000000e+00
1.000000000000e+00+j0.000000000000e+00
1.000000000000e+00+j0.000000000000e+00
1.000000000000e+00+j0.000000000000e+00
1.000000000000e+00+j0.000000000000e+00
1.000000000000e+00+j0.000000000000e+00
1.000000000000e+00+j0.000000000000e+00
1.000000000000e+00+j0.000000000000e+00
1.000000000000e+00+j0.000000000000e+00
1.000000000000e+00+j0.000000000000e+00
1.000000000000e+00+j0.000000000000e+00
1.000000000000e+00+j0.000000000000e+00
1.000000000000e+00+j0.000000000000e+00
1.000000000000e+00+j0.000000000000e+00
1.000000000000e+00+j0.000000000000e+00
1.000000000000e+00+j0.000000000000e+00
1.000000000000e+00+j0.000000000000e+00
1.000000000000e+00+j0.000000000000e+00
1.000000000000e+00+j0.000000000000e+00
1.000000000000e+00+j0.000000000000e+00
1.000000000000e+00+j0.000000000000e+00
1.000000000000e+00+j0.000000000000e+00
1.000000000000e+00+j0.000000000000e+00
1.000000000000e+00+j0.000000000000e+00
1.000000000000e+00+j0.000000000000e+00
1.000000000000e+00+j0.000000000000e+00
1.000000000000e+00+j0.000000000000e+00
1.000000000000e+00+j0.000000000000e+00
1.000000000000e+00+j0.000000000000e+00
1.000000000000e+00+j0.000000000000e+00
1.000000000000e+00+j0.000000000000e+00
1.000000000000e+00+j0.000000000000e+00
1.000000000000e+00+j0.000000000000e+00
1.000000000000e+00+j0.000000000000e+00
1.000000000000e+00+j0.000000000000e+00
1.000000000000e+00+j0.000000000000e+00
1.000000000000e+00+j0.000000000000e+00
1.000000000000e+00+j0.000000000000e+00
1.000000000000e+00+j0.000000000000e+00
1.000000000000e+00+j0.000000000000e+00
1.000000000000e+00+j0.000000000000e+00
1.000000000000e+00+j0.000000000000e+00
1.000000000000e+00+j0.000000000000e+00
1.000000000000e+00+j0.000000000000e+00
1.000000000000e+00+j0.000000000000e+00
1.000000000000e+00+j0.000000000000e+00
1.000000000000e+00+j0.000000000000e+00
1.000000000000e+00+j0.000000000000e+00
1.000000000000e+00+j0.000000000000e+00
1.000000000000e+00+j0.000000000000e+00
1.000000000000e+00+j0.000000000000e+00
1.000000000000e+00+j0.000000000000e+00
1.000000000000e+00+j0.000000000000e+00
1.000000000000e+00+j0.000000000000e+00
1.000000000000e+00+j0.000000000000e+00
1.000000000000e+00+j0.000000000000e+00
1.000000000000e+00+j0.000000000000e+00
1.000000000000e+00+j0.000000000000e+00
1.000000000000e+00+j0.000000000000e+00
1.000000000000e+00+j0.000000000000e+00
1.000000000000e+00+j0.000000000000e+00
1.000000000000e+00+j0.000000000000e+00
1.000000000000e+00+j0.000000000000e+00
1.000000000000e+00+j0.000000000000e+00
1.000000000000e+00+j0.000000000000e+00
1.000000000000e+00+j0.000000000000e+00
1.000000000000e+00+j0.000000000000e+00
1.000000000000e+00+j0.000000000000e+00
1.000000000000e+00+j0.000000000000e+00
1.000000000000e+00+j0.000000000000e+00
1.000000000000e+00+j0.000000000000e+00
1.000000000000e+00+j0.000000000000e+00
1.000000000000e+00+j0.000000000000e+00
1.000000000000e+00+j0.000000000000e+00
1.000000000000e+00+j0.000000000000e+00
1.000000000000e+00+j0.000000000000e+00
1.000000000000e+00+j0.000000000000e+00
1.000000000000e+00+j0.000000000000e+00
1.000000000000e+00+j0.000000000000e+00
1.000000000000e+00+j0.000000000000e+00
1.000000000000e+00+j0.000000000000e+00
1.000000000000e+00+j0.000000000000e+00
1.000000000000e+00+j0.000000000000e+00
1.000000000000e+00+j0.000000000000e+00
1.000000000000e+00+j0.000000000000e+00
1.000000000000e+00+j0.000000000000e+00
1.000000000000e+00+j0.000000000000e+00
1.000000000000e+00+j0.000000000000e+00
1.000000000000e+00+j0.000000000000e+00
1.000000000000e+00+j0.000000000000e+00
1.000000000000e+00+j0.000000000000e+00
1.000000000000e+00+j0.000000000000e+00
1.000000000000e+00+j0.000000000000e+00
1.000000000000e+00+j0.000000000000e+00
1.000000000000e+00+j0.000000000000e+00
1.000000000000e+00+j0.000000000000e+00
1.000000000000e+00+j0.000000000000e+00
1.000000000000e+00+j0.000000000000e+00
1.000000000000e+00+j0.000000000000e+00
1.000000000000e+00+j0.000000000000e+00
1.000000000000e+00+j0.000000000000e+00
1.000000000000e+00+j0.000000000000e+00
1.000000000000e+00+j0.000000000000e+00
1.000000000000e+00+j0.000000000000e+00
1.000000000000e+00+j0.000000000000e+00
1.000000000000e+00+j0.000000000000e+00
1.000000000000e+00+j0.000000000000e+00
1.000000000000e+00+j0.000000000000e+00
1.000000000000e+00+j0.000000000000e+00
1.000000000000e+00+j0.000000000000e+00
1.000000000000e+00+j0.000000000000e+00
1.000000000000e+00+j0.000000000000e+00
1.000000000000e+00+j0.000000000000e+00
1.000000000000e+00+j0.000000000000e+00
1.000000000000e+00+j0.000000000000e+00
1.000000000000e+00+j0.000000000000e+00
1.000000000000e+00+j0.000000000000e+00
1.000000000000e+00+j0.000000000000e+00
1.000000000000e+00+j0.000000000000e+00
1.000000000000e+00+j0.000000000000e+00
1.000000000000e+00+j0.000000000000e+00
1.000000000000e+00+j0.000000000000e+00
1.000000000000e+00+j0.000000000000e+00
1.000000000000e+00+j0.000000000000e+00
1.000000000000e+00+j0.000000000000e+00
1.000000000000e+00+j0.000000000000e+00
1.000000000000e+00+j0.000000000000e+00
1.000000000000e+00+j0.000000000000e+00
1.000000000000e+00+j0.000000000000e+00
1.000000000000e+00+j0.000000000000e+00
1.000000000000e+00+j0.000000000000e+00
1.000000000000e+00+j0.000000000000e+00
1.000000000000e+00+j0.000000000000e+00
1.000000000000e+00+j0.000000000000e+00
1.000000000000e+00+j0.000000000000e+00
1.000000000000e+00+j0.000000000000e+00
1.000000000000e+00+j0.000000000000e+00
1.000000000000e+00+j0.000000000000e+00
1.000000000000e+00+j0.000000000000e+00
1.000000000000e+00+j0.000000000000e+00
1.000000000000e+00+j0.000000000000e+00
1.000000000000e+00+j0.000000000000e+00
1.000000000000e+00+j0.000000000000e+00
1.000000000000e+00+j0.000000000000e+00
1.000000000000e+00+j0.000000000000e+00
</dep>
<dep ac.v(vout) frequency>
1.999995999970e+00+j0.000000000000e+00
1.999995999970e+00+j0.000000000000e+00
1.999995999970e+00+j0.000000000000e+00
1.999995999970e+00+j0.000000000000e+00
1.999995999970e+00+j0.000000000000e+00
1.999995999970e+00+j0.000000000000e+00
1.999995999970e+00+j0.000000000000e+00
1.999995999970e+00+j0.000000000000e+00
1.999995999970e+00+j0.000000000000e+00
1.999995999970e+00+j0.000000000000e+00
1.999995999970e+00+j0.000000000000e+00
1.999995999970e+00+j0.000000000000e+00
1.999995999970e+00+j0.000000000000e+00
1.999995999970e+00+j0.000000000000e+00
1.999995999970e+00+j0.000000000000e+00
1.999995999970e+00+j0.000000000000e+00
1.999995999970e+00+j0.000000000000e+00
1.999995999970e+00+j0.000000000000e+00
1.999995999970e+00+j0.000000000000e+00
1.999995999970e+00+j0.000000000000e+00
1.999995999970e+00+j0.000000000000e+00
1.999995999970e+00+j0.000000000000e+00
1.999995999970e+00+j0.000000000000e+00
1.999995999970e+00+j0.000000000000e+00
1.999995999970e+00+j0.000000000000e+00
1.999995999970e+00+j0.000000000000e+00
1.999995999970e+00+j0.000000000000e+00
1.999995999970e+00+j0.000000000000e+00
1.999995999970e+00+j0.000000000000e+00
1.999995999970e+00+j0.000000000000e+00
1.999995999970e+00+j0.000000000000e+00
1.999995999970e+00+j0.000000000000e+00
1.999995999970e+00+j0.000000000000e+00
1.999995999970e+00+j0.000000000000e+00
1.999995999970e+00+j0.000000000000e+00
1.999995999970e+00+j0.000000000000e+00
1.999995999970e+00+j0.000000000000e+00
1.999995999970e+00+j0.000000000000e+00
1.999995999970e+00+j0.000000000000e+00
1.999995999970e+00+j0.000000000000e+00
1.999995999970e+00+j0.000000000000e+00
1.999995999970e+00+j0.000000000000e+00
1.999995999970e+00+j0.000000000000e+00
1.999995999970e+00+j0.000000000000e+00
1.999995999970e+00+j0.000000000000e+00
1.999995999970e+00+j0.000000000000e+00
1.999995999970e+00+j0.000000000000e+00
1.999995999970e+00+j0.000000000000e+00
1.999995999970e+00+j0.000000000000e+00
1.999995999970e+00+j0.000000000000e+00
1.999995999970e+00+j0.000000000000e+00
1.999995999970e+00+j0.000000000000e+00
1.999995999970e+00+j0.000000000000e+00
1.999995999970e+00+j0.000000000000e+00
1.999995999970e+00+j0.000000000000e+00
1.999995999970e+00+j0.000000000000e+00
1.999995999970e+00+j0.000000000000e+00
1.999995999970e+00+j0.000000000000e+00
1.999995999970e+00+j0.000000000000e+00
1.999995999970e+00+j0.000000000000e+00
1.999995999970e+00+j0.000000000000e+00
1.999995999970e+00+j0.000000000000e+00
1.999995999970e+00+j0.000000000000e+00
1.999995999970e+00+j0.000000000000e+00
1.999995999970e+00+j0.000000000000e+00
1.999995999970e+00+j0.000000000000e+00
1.999995999970e+00+j0.000000000000e+00
1.999995999970e+00+j0.000000000000e+00
1.999995999970e+00+j0.000000000000e+00
1.999995999970e+00+j0.000000000000e+00
1.999995999970e+00+j0.000000000000e+00
1.999995999970e+00+j0.000000000000e+00
1.999995999970e+00+j0.000000000000e+00
1.999995999970e+00+j0.000000000000e+00
1.999995999970e+00+j0.000000000000e+00
1.999995999970e+00+j0.000000000000e+00
1.999995999970e+00+j0.000000000000e+00
1.999995999970e+00+j0.000000000000e+00
1.999995999970e+00+j0.000000000000e+00
1.999995999970e+00+j0.000000000000e+00
1.999995999970e+00+j0.000000000000e+00
1.999995999970e+00+j0.000000000000e+00
1.999995999970e+00+j0.000000000000e+00
1.999995999970e+00+j0.000000000000e+00
1.999995999970e+00+j0.000000000000e+00
1.999995999970e+00+j0.000000000000e+00
1.999995999970e+00+j0.000000000000e+00
1.999995999970e+00+j0.000000000000e+00
1.999995999970e+00+j0.000000000000e+00
1.999995999970e+00+j0.000000000000e+00
1.999995999970e+00+j0.000000000000e+00
1.999995999970e+00+j0.000000000000e+00
1.999995999970e+00+j0.000000000000e+00
1.999995999970e+00+j0.000000000000e+00
1.999995999970e+00+j0.000000000000e+00
1.999995999970e+00+j0.000000000000e+00
1.999995999970e+00+j0.000000000000e+00
1.999995999970e+00+j0.000000000000e+00
1.999995999970e+00+j0.000000000000e+00
1.999995999970e+00+j0.000000000000e+00
1.999995999970e+00+j0.000000000000e+00
1.999995999970e+00+j0.000000000000e+00
1.999995999970e+00+j0.000000000000e+00
1.999995999970e+00+j0.000000000000e+00
1.999995999970e+00+j0.000000000000e+00
1.999995999970e+00+j0.000000000000e+00
1.999995999970e+00+j0.000000000000e+00
1.999995999970e+00+j0.000000000000e+00
1.999995999970e+00+j0.000000000000e+00
1.999995999970e+00+j0.000000000000e+00
1.999995999970e+00+j0.000000000000e+00
1.999995999970e+00+j0.000000000000e+00
1.999995999970e+00+j0.000000000000e+00
1.999995999970e+00+j0.000000000000e+00
1.999995999970e+00+j0.000000000000e+00
1.999995999970e+00+j0.000000000000e+00
1.999995999970e+00+j0.000000000000e+00
1.999995999970e+00+j0.000000000000e+00
1.999995999970e+00+j0.000000000000e+00
1.999995999970e+00+j0.000000000000e+00
1.999995999970e+00+j0.000000000000e+00
1.999995999970e+00+j0.000000000000e+00
1.999995999970e+00+j0.000000000000e+00
1.999995999970e+00+j0.000000000000e+00
1.999995999970e+00+j0.000000000000e+00
1.999995999970e+00+j0.000000000000e+00
1.999995999970e+00+j0.000000000000e+00
1.999995999970e+00+j0.000000000000e+00
1.999995999970e+00+j0.000000000000e+00
1.999995999970e+00+j0.000000000000e+00
1.999995999970e+00+j0.000000000000e+00
1.999995999970e+00+j0.000000000000e+00
1.999995999970e+00+j0.000000000000e+00
1.999995999970e+00+j0.000000000000e+00
1.999995999970e+00+j0.000000000000e+00
1.999995999970e+00+j0.000000000000e+00
1.999995999970e+00+j0.000000000000e+00
1.999995999970e+00+j0.000000000000e+00
1.999995999970e+00+j0.000000000000e+00
1.999995999970e+00+j0.000000000000e+00
1.999995999970e+00+j0.000000000000e+00
1.999995999970e+00+j0.000000000000e+00
1.999995999970e+00+j0.000000000000e+00
1.999995999970e+00+j0.000000000000e+00
1.999995999970e+00+j0.000000000000e+00
1.999995999970e+00+j0.000000000000e+00
1.999995999970e+00+j0.000000000000e+00
1.999995999970e+00+j0.000000000000e+00
1.999995999970e+00+j0.000000000000e+00
1.999995999970e+00+j0.000000000000e+00
1.999995999970e+00+j0.000000000000e+00
1.999995999970e+00+j0.000000000000e+00
1.999995999970e+00+j0.000000000000e+00
1.999995999970e+00+j0.000000000000e+00
1.999995999970e+00+j0.000000000000e+00
1.999995999970e+00+j0.000000000000e+00
1.999995999970e+00+j0.000000000000e+00
1.999995999970e+00+j0.000000000000e+00
1.999995999970e+00+j0.000000000000e+00
1.999995999970e+00+j0.000000000000e+00
1.999995999970e+00+j0.000000000000e+00
1.999995999970e+00+j0.000000000000e+00
1.999995999970e+00+j0.000000000000e+00
1.999995999970e+00+j0.000000000000e+00
1.999995999970e+00+j0.000000000000e+00
1.999995999970e+00+j0.000000000000e+00
1.999995999970e+00+j0.000000000000e+00
1.999995999970e+00+j0.000000000000e+00
1.999995999970e+00+j0.000000000000e+00
1.999995999970e+00+j0.000000000000e+00
1.999995999970e+00+j0.000000000000e+00
1.999995999970e+00+j0.000000000000e+00
1.999995999970e+00+j0.000000000000e+00
1.999995999970e+00+j0.000000000000e+00
1.999995999970e+00+j0.000000000000e+00
1.999995999970e+00+j0.000000000000e+00
1.999995999970e+00+j0.000000000000e+00
1.999995999970e+00+j0.000000000000e+00
1.999995999970e+00+j0.000000000000e+00
1.999995999970e+00+j0.000000000000e+00
1.999995999970e+00+j0.000000000000e+00
1.999995999970e+00+j0.000000000000e+00
1.999995999970e+00+j0.000000000000e+00
1.999995999970e+00+j0.000000000000e+00
1.999995999970e+00+j0.000000000000e+00
1.999995999970e+00+j0.000000000000e+00
1.999995999970e+00+j0.000000000000e+00
1.999995999970e+00+j0.000000000000e+00
1.999995999970e+00+j0.000000000000e+00
1.999995999970e+00+j0.000000000000e+00
1.999995999970e+00+j0.000000000000e+00
1.999995999970e+00+j0.000000000000e+00
1.999995999970e+00+j0.000000000000e+00
1.999995999970e+00+j0.000000000000e+00
1.999995999970e+00+j0.000000000000e+00
1.999995999970e+00+j0.000000000000e+00
1.999995999970e+00+j0.000000000000e+00
1.999995999970e+00+j0.000000000000e+00
1.999995999970e+00+j0.000000000000e+00
1.999995999970e+00+j0.000000000000e+00
</dep>
<indep time 208>
0.000000000000e+00
5.000000000000e-07
1.000000000000e-06
2.000000000000e-06
4.000000000000e-06
8.000000000000e-06
1.600000000000e-05
3.200000000000e-05
6.400000000000e-05
1.140000000000e-04
1.640000000000e-04
2.140000000000e-04
2.640000000000e-04
3.140000000000e-04
3.640000000000e-04
4.140000000000e-04
4.640000000000e-04
5.140000000000e-04
5.640000000000e-04
6.140000000000e-04
6.640000000000e-04
7.140000000000e-04
7.640000000000e-04
8.140000000000e-04
