<Qucs Dataset 1.0.7>
<indep frequency 201>
  +1.00000000000000000000e+03
  +1.02329299228075410610e+03
  +1.04712854805089955335e+03
  +1.07151930523760643155e+03
  +1.09647819614318518688e+03
  +1.12201845430196340203e+03
  +1.14815362149688280624e+03
  +1.17489755493952952747e+03
  +1.20226443461741291685e+03
  +1.23026877081238171741e+03
  +1.25892541179416730301e+03
  +1.28824955169313398073e+03
  +1.31825673855640729926e+03
  +1.34896288259165385170e+03
  +1.38038426460288474118e+03
  +1.41253754462275446713e+03
  +1.44543977074592748977e+03
  +1.47910838816820751163e+03
  +1.51356124843620818865e+03
  +1.54881661891248154461e+03
  +1.58489319246111358552e+03
  +1.62181009735893007928e+03
  +1.65958690743756073971e+03
  +1.69824365246174443200e+03
  +1.73780082874937556880e+03
  +1.77827941003892306071e+03
  +1.81970085860998369753e+03
  +1.86208713666286757871e+03
  +1.90546071796324713432e+03
  +1.94984459975804543319e+03
  +1.99526231496887976391e+03
  +2.04173794466952926996e+03
  +2.08929613085403980222e+03
  +2.13796208950223217471e+03
  +2.18776162394955235868e+03
  +2.23872113856833993850e+03
  +2.29086765276777305189e+03
  +2.34422881531992197779e+03
  +2.39883291901949041858e+03
  +2.45470891568503066082e+03
  +2.51188643150958023398e+03
  +2.57039578276886413732e+03
  +2.63026799189538223800e+03
  +2.69153480392691608358e+03
  +2.75422870333816626953e+03
  +2.81838293126445432790e+03
  +2.88403150312660591226e+03
  +2.95120922666638625742e+03
  +3.01995172040201669006e+03
  +3.09029543251359064016e+03
  +3.16227766016837949792e+03
  +3.23593656929628286889e+03
  +3.31131121482591152017e+03
  +3.38844156139202550548e+03
  +3.46736850452531689371e+03
  +3.54813389233575526305e+03
  +3.63078054770101334725e+03
  +3.71535229097172577895e+03
  +3.80189396320561172615e+03
  +3.89045144994280644823e+03
  +3.98107170553497280707e+03
  +4.07380277804112802187e+03
  +4.16869383470335469610e+03
  +4.26579518801592712407e+03
  +4.36515832240166037082e+03
  +4.46683592150963067979e+03
  +4.57088189614875045663e+03
  +4.67735141287198166538e+03
  +4.78630092322638392943e+03
  +4.89778819368446238514e+03
  +5.01187233627272416925e+03
  +5.12861383991364982649e+03
  +5.24807460249772702809e+03
  +5.37031796370252868655e+03
  +5.49540873857624592347e+03
  +5.62341325190349198238e+03
  +5.75439937337156970898e+03
  +5.88843655355589089595e+03
  +6.02559586074357775942e+03
  +6.16595001861482342065e+03
  +6.30957344480193296477e+03
  +6.45654229034655509167e+03
  +6.60693448007596089155e+03
  +6.76082975391981835855e+03
  +6.91830970918936691305e+03
  +7.07945784384137914458e+03
  +7.24435960074990271096e+03
  +7.41310241300917641638e+03
  +7.58577575029183753941e+03
  +7.76247116628691765072e+03
  +7.94328234724281719537e+03
  +8.12830516164099299203e+03
  +8.31763771102671125846e+03
  +8.51138038202376446861e+03
  +8.70963589956080795673e+03
  +8.91250938133745694358e+03
  +9.12010839355909774895e+03
  +9.33254300796991083189e+03
  +9.54992586021435818111e+03
  +9.77237220955811062595e+03
  +1.00000000000000018190e+04
  +1.02329299228075433348e+04
  +1.04712854805089955335e+04
  +1.07151930523760693177e+04
  +1.09647819614318541426e+04
  +1.12201845430196353846e+04
  +1.14815362149688280624e+04
  +1.17489755493952943652e+04
  +1.20226443461741328065e+04
  +1.23026877081238180835e+04
  +1.25892541179416748491e+04
  +1.28824955169313416263e+04
  +1.31825673855640707188e+04
  +1.34896288259165394265e+04
  +1.38038426460288519593e+04
  +1.41253754462275446713e+04
  +1.44543977074592748977e+04
  +1.47910838816820796637e+04
  +1.51356124843620873435e+04
  +1.54881661891248168104e+04
  +1.58489319246111372195e+04
  +1.62181009735892985191e+04
  +1.65958690743756123993e+04
  +1.69824365246174493222e+04
  +1.73780082874937579618e+04
  +1.77827941003892301524e+04
  +1.81970085860998406133e+04
  +1.86208713666286821535e+04
  +1.90546071796324758907e+04
  +1.94984459975804529677e+04
  +1.99526231496887958201e+04
  +2.04173794466953004303e+04
  +2.08929613085404016601e+04
  +2.13796208950223226566e+04
  +2.18776162394955281343e+04
  +2.23872113856834039325e+04
  +2.29086765276777368854e+04
  +2.34422881531992243254e+04
  +2.39883291901949087332e+04
  +2.45470891568503066082e+04
  +2.51188643150958087062e+04
  +2.57039578276886459207e+04
  +2.63026799189538251085e+04
  +2.69153480392691599263e+04
  +2.75422870333816754282e+04
  +2.81838293126445496455e+04
  +2.88403150312660654890e+04
  +2.95120922666638616647e+04
  +3.01995172040201650816e+04
  +3.09029543251359209535e+04
  +3.16227766016838031646e+04
  +3.23593656929628341459e+04
  +3.31131121482591115637e+04
  +3.38844156139202532358e+04
  +3.46736850452531798510e+04
  +3.54813389233575580874e+04
  +3.63078054770101443864e+04
  +3.71535229097172632464e+04
  +3.80189396320561354514e+04
  +3.89045144994280781248e+04
  +3.98107170553497344372e+04
  +4.07380277804112774902e+04
  +4.16869383470335451420e+04
  +4.26579518801592785167e+04
  +4.36515832240166128031e+04
  +4.46683592150963231688e+04
  +4.57088189614875082043e+04
  +4.67735141287198421196e+04
  +4.78630092322638593032e+04
  +4.89778819368446347653e+04
  +5.01187233627272362355e+04
  +5.12861383991364928079e+04
  +5.24807460249772848329e+04
  +5.37031796370252923225e+04
  +5.49540873857624683296e+04
  +5.62341325190349161858e+04
  +5.75439937337156952708e+04
  +5.88843655355588925886e+04
  +6.02559586074357648613e+04
  +6.16595001861482596723e+04
  +6.30957344480193642084e+04
  +6.45654229034655872965e+04
  +6.60693448007596161915e+04
  +6.76082975391981890425e+04
  +6.91830970918936509406e+04
  +7.07945784384137950838e+04
  +7.24435960074990143767e+04
  +7.41310241300917405169e+04
  +7.58577575029184372397e+04
  +7.76247116628692165250e+04
  +7.94328234724281937815e+04
  +8.12830516164099681191e+04
  +8.31763771102671307744e+04
  +8.51138038202376628760e+04
  +8.70963589956080686534e+04
  +8.91250938133745657979e+04
  +9.12010839355909702135e+04
  +9.33254300796991738025e+04
  +9.54992586021436582087e+04
  +9.77237220955811208114e+04
  +1.00000000000000043656e+05
</indep>
<dep dBS11 frequency>
  -5.97294673165733343012e+01
  -5.91413809325649424409e+01
  -5.85527737483469934432e+01
  -5.79636679153437839318e+01
  -5.73740847011870940264e+01
  -5.67840445207565025498e+01
  -5.61935669666211623507e+01
  -5.56026708388544648187e+01
  -5.50113741742134862989e+01
  -5.44196942746749243724e+01
  -5.38276477353202977838e+01
  -5.32352504715790857404e+01
  -5.26425177458365425309e+01
  -5.20494641934153250418e+01
  -5.14561038479544805568e+01
  -5.08624501662069263830e+01
  -5.02685160522839069586e+01
  -4.96743138813811668797e+01
  -4.90798555230263673366e+01
  -4.84851523638934978067e+01
  -4.78902153302373960742e+01
  -4.72950549100075008369e+01
  -4.66996811747082176680e+01
  -4.61041038010830419580e+01
  -4.55083320927082866092e+01
  -4.49123750015923022261e+01
  -4.43162411498925550291e+01
  -4.37199388518724774144e+01
  -4.31234761362378975491e+01
  -4.25268607690135098665e+01
  -4.19301002771374982103e+01
  -4.13332019729774273742e+01
  -4.07361729800000773594e+01
  -4.01390202598564442837e+01
  -3.95417506411817640810e+01
  -3.89443708504507029033e+01
  -3.83468875452750808108e+01
  -3.77493073505870029294e+01
  -3.71516368982123097453e+01
  -3.65538828704102130018e+01
  -3.59560520480380247932e+01
  -3.53581513640933877696e+01
  -3.47601879634934007868e+01
  -3.41621692700736332426e+01
  -3.35641030619317035644e+01
  -3.29659975563978306923e+01
  -3.23678615061020877874e+01
  -3.17697043078143295247e+01
  -3.11715361259741676747e+01
  -3.05733680330977044548e+01
  -2.99752121695572029125e+01
  -2.93770819255817627891e+01
  -2.87789921487212865259e+01
  -2.81809593804670512895e+01
  -2.75830021262253737291e+01
  -2.69851411634111642002e+01
  -2.63873998930618895997e+01
  -2.57898047410833513027e+01
  -2.51923856160232197965e+01
  -2.45951764311350231651e+01
  -2.39982156994422304308e+01
  -2.34015472115370961603e+01
  -2.28052208069454174222e+01
  -2.22092932510428617832e+01
  -2.16138292306982258140e+01
  -2.10189024830103150521e+01
  -2.04245970726469607825e+01
  -1.98310088343182187032e+01
  -1.92382469977195995625e+01
  -1.86464360127385369026e+01
  -1.80557175926477455619e+01
  -1.74662529921906859443e+01
  -1.68782255356011923197e+01
  -1.62918434063304324866e+01
  -1.57073427051259315590e+01
  -1.51249907755805335086e+01
  -1.45450897857086847154e+01
  -1.39679805397983525239e+01
  -1.33940464759592874344e+01
  -1.28237177806705169303e+01
  -1.22574755215430659661e+01
  -1.16958556630007244337e+01
  -1.11394527866169248398e+01
  -1.05889232890882389881e+01
  -1.00449877779567344760e+01
  -9.50843233129292286776e+00
  -8.98010823746975717086e+00
  -8.46092979182234294910e+00
  -7.95186970747392418701e+00
  -7.45395170885539215533e+00
  -6.96823993036855071637e+00
  -6.49582485051768898643e+00
  -6.03780566185687561642e+00
  -5.59526921129158338886e+00
  -5.16926593617723639795e+00
  -4.76078354966863237507e+00
  -4.37071956118719295858e+00
  -3.99985401078389113394e+00
  -3.64882399993751160849e+00
  -3.31810166933092842712e+00
  -3.00797717346986814846e+00
  -2.71854792327203576008e+00
  -2.44971493107453319737e+00
  -2.20118654696403570625e+00
  -1.97248929120857408037e+00
  -1.76298494286554552346e+00
  -1.57189260947167719351e+00
  -1.39831422587989662176e+00
  -1.24126183157713754213e+00
  -1.09968504551858403673e+00
  -9.72497362518558006172e-01
  -8.58600188846619261085e-01
  -7.56903867262820440054e-01
  -6.66345269484877267274e-01
  -5.85901824445611785208e-01
  -5.14602084208016341549e-01
  -4.51533098722565640060e-01
  -3.95844977842698342307e-01
  -3.46753072406282558671e-01
  -3.03538217036587343323e-01
  -2.65545457529426043308e-01
  -2.32181646193854201998e-01
  -2.02912238357707386260e-01
  -1.77257569337096160256e-01
  -1.54788838331975903140e-01
  -1.35123977009263235294e-01
  -1.17923537638155606633e-01
  -1.02886699201659034819e-01
  -8.97474598890387331718e-02
  -7.82710603185206021948e-02
  -6.82506630658921975563e-02
  -5.95042998105377862750e-02
  -5.18720868873793622411e-02
  -4.52137025357083402466e-02
  -3.94061140314641497606e-02
  -3.43415396374190939888e-02
  -2.99256284573095991675e-02
  -2.60758404701628559996e-02
  -2.27200089599339863367e-02
  -1.97950680165397789601e-02
  -1.72459285925797289885e-02
  -1.50244876249542459040e-02
  -1.30887558738093205679e-02
  -1.14020913230747714118e-02
  -9.93252617657867931111e-03
  -8.65217663806067474597e-03
  -7.53672575931169010793e-03
  -6.56497066542436214648e-03
  -5.71842641258158129042e-03
  -4.98097959911671800404e-03
  -4.33858563632354924527e-03
  -3.77900429373803853697e-03
  -3.29156876910718064477e-03
  -2.86698410106919852197e-03
  -2.49715124753869524218e-03
  -2.17501360118821374101e-03
  -1.89442311007673885349e-03
  -1.65002352159084432828e-03
  -1.43714857675873567723e-03
  -1.25173325349700126710e-03
  -1.09023639607272503430e-03
  -9.49573277577098022462e-04
  -8.27056825834526039218e-04
  -7.20346404063516442158e-04
  -6.27403178517851986724e-04
  -5.46451228482436953023e-04
  -4.75943661613990745898e-04
  -4.14533091933801198931e-04
  -3.61045919800858576380e-04
  -3.14459925132349205762e-04
  -2.73884747520481016368e-04
  -2.38544881988035894485e-04
  -2.07764866365000883553e-04
  -1.80956378140945659851e-04
  -1.57606994914961094124e-04
  -1.37270403999318474364e-04
  -1.19557874563185008356e-04
  -1.04130829492715150635e-04
  -9.06943753297456863038e-05
  -7.89916666641468363623e-05
  -6.87989974685179262511e-05
  -5.99215256205661600422e-05
  -5.21895489204126281058e-05
  -4.54552615697200303266e-05
  -3.95899290225556246261e-05
  -3.44814273537108202227e-05
  -3.00321000825964595066e-05
  -2.61568914625249588019e-05
  -2.27817206639978183855e-05
  -1.98420656784049253196e-05
  -1.72817299603550257148e-05
  -1.50517681773375855176e-05
  -1.31095505869154858359e-05
  -1.14179481285129712768e-05
  -9.94462266077803880640e-06
  -8.66140876632493414400e-06
  -7.54377532326256077660e-06
  -6.57035660731538133600e-06
  -5.72254379848249845669e-06
  -4.98412925911028771472e-06
  -4.34099671604390507853e-06
</dep>
<dep dBS21 frequency>
  -4.62208375622806035834e-06
  -5.29232471378720817020e-06
  -6.06048302994146779571e-06
  -6.94093323012045100269e-06
  -7.95016676632515017999e-06
  -9.10710438964732815011e-06
  -1.04334547403178667620e-05
  -1.19541258924458001508e-05
  -1.36976977459913334012e-05
  -1.56969642338953959619e-05
  -1.79895556953371508774e-05
  -2.06186532543155617977e-05
  -2.36338088377169934485e-05
  -2.70918864405087598678e-05
  -3.10581425857681976818e-05
  -3.56074665587472770681e-05
  -4.08258041042249128147e-05
  -4.68117916905508811825e-05
  -5.36786324514411362051e-05
  -6.15562497088238409337e-05
  -7.05937589996584317128e-05
  -8.09623058154871526673e-05
  -9.28583231292445641534e-05
  -1.06507270881860320144e-04
  -1.22167928624375730440e-04
  -1.40137323305151425884e-04
  -1.60756385981908507532e-04
  -1.84416445446568808865e-04
  -2.11566682437621468625e-04
  -2.42722686588943317287e-04
  -2.78476279037698866339e-04
  -3.19506787973571483412e-04
  -3.66593991756576620920e-04
  -4.20632976100101781472e-04
  -4.82651188018773250402e-04
  -5.53828011067571037568e-04
  -6.35517233956159723410e-04
  -7.29272839587517883279e-04
  -8.36878604187993790572e-04
  -9.60382068111212058859e-04
  -1.10213352227920115614e-03
  -1.26483074845124433133e-03
  -1.45157035934269135376e-03
  -1.66590670809618843912e-03
  -1.91191947758186770422e-03
  -2.19429122115150782024e-03
  -2.51839631045093405998e-03
  -2.89040295560576490641e-03
  -3.31739020223705341484e-03
  -3.80748208166990786960e-03
  -4.37000139989388979717e-03
  -5.01564600156341206666e-03
  -5.75669074247339013217e-03
  -6.60721885289584053014e-03
  -7.58338687981903111779e-03
  -8.70372796469342027703e-03
  -9.98949884935916056217e-03
  -1.14650767121748601435e-02
  -1.31584127226191931886e-02
  -1.51015500691266419536e-02
  -1.73312151620425222709e-02
  -1.98894917390672471003e-02
  -2.28245886974680518844e-02
  -2.61917136318012208629e-02
  -3.00540652460894383569e-02
  -3.44839590008251400954e-02
  -3.95641014975575827650e-02
  -4.53890301268319584782e-02
  -5.20667353105514207900e-02
  -5.97204831258934046301e-02
  -6.84908560300119401143e-02
  -7.85380285852633752697e-02
  -9.00442932228827375152e-02
  -1.03216847813364778763e-01
  -1.18290851684190623239e-01
  -1.35532749198614188568e-01
  -1.55243849448864074114e-01
  -1.77764136308455195090e-01
  -2.03476264260393113759e-01
  -2.32809671301082377060e-01
  -2.66244710132222839327e-01
  -3.04316662340521570940e-01
  -3.47619457300261947008e-01
  -3.96808868776146406177e-01
  -4.52604909336047411816e-01
  -5.15793088782540820603e-01
  -5.87224152731315451881e-01
  -6.67811878128392377718e-01
  -7.58528482984696994507e-01
  -8.60397218852719691817e-01
  -9.74481768493453692770e-01
  -1.10187217905609613489e+00
  -1.24366723111603638685e+00
  -1.40095337810767417430e+00
  -1.57478068159303186135e+00
  -1.76613649581829768032e+00
  -1.97591798742367252828e+00
  -2.20490486908277594225e+00
  -2.45373392960963965237e+00
  -2.72287701107481527885e+00
  -3.01262398279330678719e+00
  -3.32307198331134090452e+00
  -3.65412176483818296191e+00
  -4.00548142902665027520e+00
  -4.37667725887968295240e+00
  -4.76707080685691764188e+00
  -5.17588096408546061156e+00
  -5.60220945873914022428e+00
  -6.04506813291922995290e+00
  -6.50340641707111899450e+00
  -6.97613762597651732023e+00
  -7.46216299396857607462e+00
  -7.96039269960334028298e+00
  -8.46976345777946981741e+00
  -8.98925254766373171833e+00
  -9.51788837828910949668e+00
  -1.00547578630093443763e+01
  -1.05990109812252075727e+01
  -1.11498629591897646662e+01
  -1.17065945125456050135e+01
  -1.22685505734599828997e+01
  -1.28351378857249152077e+01
  -1.34058218010328840109e+01
  -1.39801225557268100630e+01
  -1.45576112544859803677e+01
  -1.51379057387090298903e+01
  -1.57206664744579089898e+01
  -1.63055925583868415174e+01
  -1.68924179100603382153e+01
  -1.74809076950093356118e+01
  -1.80708550041006574816e+01
  -1.86620778005311329650e+01
  -1.92544161352343614624e+01
  -1.98477296239910145914e+01
  -2.04418951744287369365e+01
  -2.10368049478458765122e+01
  -2.16323645389448948606e+01
  -2.22284913557514514082e+01
  -2.28251131819338368700e+01
  -2.34221669041988853621e+01
  -2.40195973882482505246e+01
  -2.46173564878040984638e+01
  -2.52154021723564412127e+01
  -2.58136977604762023475e+01
  -2.64122112467277645464e+01
  -2.70109147113691783204e+01
  -2.76097838031240954138e+01
  -2.82087972863342884011e+01
  -2.88079366447478655289e+01
  -2.94071857350640009088e+01
  -3.00065304841402920033e+01
  -3.06059586244776014041e+01
  -3.12054594632320814185e+01
  -3.18050236805727593037e+01
  -3.24046431537071129014e+01
  -3.30043108033461720652e+01
  -3.36040204597771392514e+01
  -3.42037667460613192816e+01
  -3.48035449761846180650e+01
  -3.54033510662588639661e+01
  -3.60031814571112818157e+01
  -3.66030330468087541362e+01
  -3.72029031318472505063e+01
  -3.78027893558976302302e+01
  -3.84026896651400164728e+01
  -3.90026022693419704979e+01
  -3.96025256079435692413e+01
  -4.02024583205063308355e+01
  -4.08023992209655546048e+01
  -4.14023472751970302852e+01
  -4.20023015814720395156e+01
  -4.26022613534289078530e+01
  -4.32022259052373414079e+01
  -4.38021946386733702639e+01
  -4.44021670318587098336e+01
  -4.50021426294503896770e+01
  -4.56021210340936988814e+01
  -4.62021018989757692452e+01
  -4.68020849213380429887e+01
  -4.74020698368239976617e+01
  -4.80020564145544810231e+01
  -4.86020444528371626802e+01
  -4.92020337754278713760e+01
  -4.98020242282733178740e+01
  -5.04020156766725691000e+01
  -5.10020080028039330955e+01
  -5.16020011035695063129e+01
  -5.22019948887170741614e+01
  -5.28019892792032266016e+01
  -5.34019842057666238588e+01
  -5.40019796076847882205e+01
  -5.46019754316901355651e+01
  -5.52019716310251666869e+01
  -5.58019681646188701052e+01
  -5.64019649963685694161e+01
  -5.70019620945136935575e+01
  -5.76019594310898526146e+01
  -5.82019569814525254969e+01
  -5.88019547238616198115e+01
  -5.94019526391192513870e+01
  -6.00019507102534177534e+01
</dep>
<dep S[1,1] frequency>
  +2.05321297086427569795e-04+j1.01099788008615631973e-03
  +2.24768480831301180334e-04+j1.08077804689364620483e-03
  +2.46069610615170641238e-04+j1.15539022029477467246e-03
  +2.69401726028621613107e-04+j1.23516410742486454355e-03
  +2.94958745969022776562e-04+j1.32045113913684120099e-03
  +3.22953070542746946414e-04+j1.41162579880917821162e-03
  +3.53617333714379995097e-04+j1.50908701875240164325e-03
  +3.87206320688006713771e-04+j1.61325964569346974598e-03
  +4.23999065272836171692e-04+j1.72459597650871654384e-03
  +4.64301143853840594944e-04+j1.84357736499980023881e-03
  +5.08447184088695221249e-04+j1.97071590004378738303e-03
  +5.56803608066273360289e-04+j2.10655615488807013147e-03
  +6.09771631422605445150e-04+j2.25167700668942039055e-03
  +6.67790541815165353268e-04+j2.40669352459611796125e-03
  +7.31341282213227548981e-04+j2.57225892372203723824e-03
  +8.00950366700360107119e-04+j2.74906658124142444510e-03
  +8.77194158889951954017e-04+j2.93785210951953701386e-03
  +9.60703545660311457322e-04+j3.13939547965466636548e-03
  +1.05216904172955941221e-03+j3.35452318701073837204e-03
